
T03B4 000:470 SEGGER J-Link V4.90 Log File (0001ms, 0259ms total)
T03B4 000:470 DLL Compiled: Jul 28 2014 10:35:20 (0001ms, 0259ms total)
T03B4 000:470 Logging started @ 2021-07-26 13:34 (0001ms, 0259ms total)
T03B4 000:471 JLINK_SetWarnOutHandler(...) (0000ms, 0259ms total)
T03B4 000:471 JLINK_OpenEx(...)
Firmware: J-Link V9 compiled Feb  2 2021 16:34:10
Hardware: V9.40
S/N: 59402905
Feature(s): RDI, GDB, FlashDL, FlashBP, JFlash  returns O.K. (0261ms, 0520ms total)
T03B4 000:732 JLINK_SetErrorOutHandler(...) (0000ms, 0520ms total)
T03B4 000:732 JLINK_ExecCommand("ProjectFile = "E:\CMS Workspace\AM300\Code\AM300B\Project\JLinkSettings.ini"", ...)Device "CORTEX-M4" selected (0 KB flash, 0 KB RAM).  returns 0x00 (0007ms, 0527ms total)
T03B4 000:744 JLINK_ExecCommand("Device = HS6621C", ...)Device "CORTEX-M4" selected (0 KB flash, 0 KB RAM).  returns 0x00 (0003ms, 0530ms total)
T03B4 000:747 JLINK_ExecCommand("DisableConnectionTimeout", ...)  returns 0x01 (0000ms, 0530ms total)
T03B4 000:747 JLINK_GetHardwareVersion()  returns 0x16F30 (0000ms, 0530ms total)
T03B4 000:747 JLINK_GetDLLVersion()  returns 49000 (0000ms, 0530ms total)
T03B4 000:747 JLINK_GetFirmwareString(...) (0000ms, 0530ms total)
T03B4 000:755 JLINK_GetDLLVersion()  returns 49000 (0000ms, 0530ms total)
T03B4 000:755 JLINK_GetCompileDateTime() (0000ms, 0530ms total)
T03B4 000:758 JLINK_GetFirmwareString(...) (0000ms, 0530ms total)
T03B4 000:761 JLINK_GetHardwareVersion()  returns 0x16F30 (0000ms, 0530ms total)
T03B4 000:768 JLINK_TIF_Select(JLINKARM_TIF_SWD)  returns 0x00 (0002ms, 0532ms total)
T03B4 000:770 JLINK_SetSpeed(10000) (0000ms, 0532ms total)
T03B4 000:770 JLINK_GetId() >0x108 TIF>Found SWD-DP with ID 0x2BA01477 >0x0D TIF> >0x21 TIF> >0x0D TIF> >0x28 TIF> >0x0D TIF> >0x28 TIF> >0x0D TIF> >0x21 TIF> >0x0D TIF> >0x28 TIF> >0x0D TIF> >0x21 TIF> >0x0D TIF> >0x21 TIF> >0x0D TIF> >0x21 TIF> >0x0D TIF> >0x21 TIF> >0x0D TIF> >0x28 TIF> >0x0D TIF> >0x28 TIF> >0x0D TIF> >0x21 TIF> >0x0D TIF> >0x28 TIF> >0x0D TIF> >0x28 TIF> >0x0D TIF> >0x28 TIF> >0x0D TIF> >0x21 TIF> >0x0D TIF> >0x21 TIF> >0x0D TIF> >0x28 TIF> >0x0D TIF> >0x21 TIF> >0x0D TIF>
 >0x21 TIF>Found Cortex-M4 r0p1, Little endian. -- CPU_WriteMem(4 bytes @ 0xE0002000) -- CPU_ReadMem(4 bytes @ 0xE000EDF0) -- CPU_ReadMem(4 bytes @ 0xE0002000)FPUnit: 6 code (BP) slots and 2 literal slots -- CPU_ReadMem(4 bytes @ 0xE000EDFC) -- CPU_ReadMem(4 bytes @ 0xE0001000) -- CPU_WriteMem(4 bytes @ 0xE0001000) -- CPU_ReadMem(4 bytes @ 0xE00FF010)TPIU fitted. -- CPU_ReadMem(4 bytes @ 0xE00FF014) -- CPU_ReadMem(4 bytes @ 0xE00FF018) >0x0D TIF> >0x21 TIF>  returns 0x2BA01477 (0025ms, 0557ms total)
T03B4 000:795 JLINK_GetDLLVersion()  returns 49000 (0000ms, 0557ms total)
T03B4 000:795 JLINK_CORE_GetFound()  returns 0xE0000FF (0000ms, 0557ms total)
T03B4 000:797 JLINK_ReadMem (0xE00FF000, 0x0020 Bytes, ...) -- CPU is running -- CPU_ReadMem(32 bytes @ 0xE00FF000) - Data: 03 F0 F0 FF 03 20 F0 FF 03 30 F0 FF 03 10 F0 FF ...  returns 0x00 (0000ms, 0557ms total)
T03B4 000:797 JLINK_ReadMem (0xE000EFF0, 0x0010 Bytes, ...) -- CPU is running -- CPU_ReadMem(16 bytes @ 0xE000EFF0) - Data: 0D 00 00 00 E0 00 00 00 05 00 00 00 B1 00 00 00  returns 0x00 (0001ms, 0558ms total)
T03B4 000:798 JLINK_ReadMem (0xE000EFD0, 0x0020 Bytes, ...) -- CPU is running -- CPU_ReadMem(32 bytes @ 0xE000EFD0) - Data: 04 00 00 00 00 00 00 00 00 00 00 00 00 00 00 00 ...  returns 0x00 (0001ms, 0559ms total)
T03B4 000:799 JLINK_ReadMem (0xE0001FF0, 0x0010 Bytes, ...) -- CPU is running -- CPU_ReadMem(16 bytes @ 0xE0001FF0) - Data: 0D 00 00 00 E0 00 00 00 05 00 00 00 B1 00 00 00  returns 0x00 (0000ms, 0559ms total)
T03B4 000:799 JLINK_ReadMem (0xE0001FD0, 0x0020 Bytes, ...) -- CPU is running -- CPU_ReadMem(32 bytes @ 0xE0001FD0) - Data: 04 00 00 00 00 00 00 00 00 00 00 00 00 00 00 00 ...  returns 0x00 (0001ms, 0560ms total)
T03B4 000:800 JLINK_ReadMem (0xE0002FF0, 0x0010 Bytes, ...) -- CPU is running -- CPU_ReadMem(16 bytes @ 0xE0002FF0) - Data: 0D 00 00 00 E0 00 00 00 05 00 00 00 B1 00 00 00  returns 0x00 (0001ms, 0561ms total)
T03B4 000:801 JLINK_ReadMem (0xE0002FD0, 0x0020 Bytes, ...) -- CPU is running -- CPU_ReadMem(32 bytes @ 0xE0002FD0) - Data: 04 00 00 00 00 00 00 00 00 00 00 00 00 00 00 00 ...  returns 0x00 (0000ms, 0561ms total)
T03B4 000:801 JLINK_ReadMem (0xE0000FF0, 0x0010 Bytes, ...) -- CPU is running -- CPU_ReadMem(16 bytes @ 0xE0000FF0) - Data: 0D 00 00 00 E0 00 00 00 05 00 00 00 B1 00 00 00  returns 0x00 (0001ms, 0562ms total)
T03B4 000:802 JLINK_ReadMem (0xE0000FD0, 0x0020 Bytes, ...) -- CPU is running -- CPU_ReadMem(32 bytes @ 0xE0000FD0) - Data: 04 00 00 00 00 00 00 00 00 00 00 00 00 00 00 00 ...  returns 0x00 (0000ms, 0562ms total)
T03B4 000:802 JLINK_ReadMem (0xE0040FF0, 0x0010 Bytes, ...) -- CPU is running -- CPU_ReadMem(16 bytes @ 0xE0040FF0) - Data: 0D 00 00 00 90 00 00 00 05 00 00 00 B1 00 00 00  returns 0x00 (0001ms, 0563ms total)
T03B4 000:803 JLINK_ReadMem (0xE0040FD0, 0x0020 Bytes, ...) -- CPU is running -- CPU_ReadMem(32 bytes @ 0xE0040FD0) - Data: 04 00 00 00 00 00 00 00 00 00 00 00 00 00 00 00 ...  returns 0x00 (0000ms, 0563ms total)
T03B4 000:803 JLINK_ReadMemU32(0xE000EF40, 0x0001 Items, ...) -- CPU is running -- CPU_ReadMem(4 bytes @ 0xE000EF40) - Data: 21 00 11 10  returns 0x01 (0001ms, 0564ms total)
T03B4 000:804 JLINK_ReadMemU32(0xE000EF44, 0x0001 Items, ...) -- CPU is running -- CPU_ReadMem(4 bytes @ 0xE000EF44) - Data: 11 00 00 11  returns 0x01 (0000ms, 0564ms total)
T03B4 000:804 JLINK_ReadMemU32(0xE000ED00, 0x0001 Items, ...) -- CPU is running -- CPU_ReadMem(4 bytes @ 0xE000ED00) - Data: 41 C2 0F 41  returns 0x01 (0001ms, 0565ms total)
T03B4 000:805 JLINK_SetResetType(JLINKARM_RESET_TYPE_BP0)  returns JLINKARM_RESET_TYPE_NORMAL (0000ms, 0565ms total)
T03B4 000:805 JLINK_Reset() -- CPU is running -- CPU_WriteMem(4 bytes @ 0xE000EDFC) -- CPU is running -- CPU_WriteMem(4 bytes @ 0xE000ED0C) -- CPU is running -- CPU_ReadMem(4 bytes @ 0xE000EDF0) -- CPU is running -- CPU_ReadMem(4 bytes @ 0xE000EDF0) -- CPU is running -- CPU_WriteMem(4 bytes @ 0xE000EDF0) -- CPU is running -- CPU_WriteMem(4 bytes @ 0xE000EDFC) -- CPU is running -- CPU_ReadMem(4 bytes @ 0xE000EDF0) -- CPU_WriteMem(4 bytes @ 0xE0002000) -- CPU_ReadMem(4 bytes @ 0xE000EDFC)
 -- CPU_ReadMem(4 bytes @ 0xE0001000) (0015ms, 0580ms total)
T03B4 000:820 JLINK_Halt()  returns 0x00 (0000ms, 0580ms total)
T03B4 000:820 JLINK_IsHalted()  returns TRUE (0000ms, 0580ms total)
T03B4 000:820 JLINK_ReadMemU32(0xE000EDF0, 0x0001 Items, ...) -- CPU_ReadMem(4 bytes @ 0xE000EDF0) - Data: 03 00 03 00  returns 0x01 (0001ms, 0581ms total)
T03B4 000:821 JLINK_WriteU32(0xE000EDF0, 0xA05F0003) -- CPU_WriteMem(4 bytes @ 0xE000EDF0)  returns 0x00 (0000ms, 0581ms total)
T03B4 000:821 JLINK_WriteU32(0xE000EDFC, 0x01000000) -- CPU_WriteMem(4 bytes @ 0xE000EDFC)  returns 0x00 (0001ms, 0582ms total)
T03B4 000:829 JLINK_GetHWStatus(...)  returns 0x00 (0000ms, 0582ms total)
T03B4 000:835 JLINK_GetNumBPUnits(Type = 0xFFFFFF00)  returns 0x06 (0000ms, 0582ms total)
T03B4 000:835 JLINK_GetNumBPUnits(Type = 0xF0)  returns 0x2000 (0000ms, 0582ms total)
T03B4 000:835 JLINK_GetNumWPUnits()  returns 0x04 (0000ms, 0582ms total)
T03B4 000:840 JLINK_GetSpeed()  returns 0x1770 (0000ms, 0582ms total)
T03B4 000:843 JLINK_ReadMemU32(0xE000E004, 0x0001 Items, ...) -- CPU_ReadMem(4 bytes @ 0xE000E004) - Data: 01 00 00 00  returns 0x01 (0001ms, 0583ms total)
T03B4 000:844 JLINK_ReadMemU32(0xE000E004, 0x0001 Items, ...) -- CPU_ReadMem(4 bytes @ 0xE000E004) - Data: 01 00 00 00  returns 0x01 (0001ms, 0584ms total)
T03B4 000:845 JLINK_WriteMem(0xE0001000, 0x001C Bytes, ...) - Data: 01 00 00 00 00 00 00 00 00 00 00 00 00 00 00 00 ... -- CPU_WriteMem(28 bytes @ 0xE0001000)  returns 0x1C (0000ms, 0584ms total)
T03B4 000:845 JLINK_ReadMem (0xE0001000, 0x001C Bytes, ...) -- CPU_ReadMem(28 bytes @ 0xE0001000) - Data: 01 00 00 40 00 00 00 00 00 00 00 00 00 00 00 00 ...  returns 0x00 (0001ms, 0585ms total)
T03B4 000:846 JLINK_Halt()  returns 0x00 (0000ms, 0585ms total)
T03B4 000:846 JLINK_IsHalted()  returns TRUE (0000ms, 0585ms total)
T03B4 000:849 JLINK_WriteMem(0x20000000, 0x1E58 Bytes, ...) - Data: 00 BE 0A E0 0D 78 2D 06 68 40 08 24 40 00 00 D3 ... -- CPU_WriteMem(7768 bytes @ 0x20000000)  returns 0x1E58 (0024ms, 0609ms total)
T03B4 000:873 JLINK_WriteReg(R0, 0x00000000)  returns 0x00 (0000ms, 0609ms total)
T03B4 000:873 JLINK_WriteReg(R1, 0x03D09000)  returns 0x00 (0000ms, 0609ms total)
T03B4 000:873 JLINK_WriteReg(R2, 0x00000001)  returns 0x00 (0000ms, 0609ms total)
T03B4 000:873 JLINK_WriteReg(R3, 0x00000000)  returns 0x00 (0000ms, 0609ms total)
T03B4 000:873 JLINK_WriteReg(R4, 0x00000000)  returns 0x00 (0000ms, 0609ms total)
T03B4 000:873 JLINK_WriteReg(R5, 0x00000000)  returns 0x00 (0000ms, 0609ms total)
T03B4 000:873 JLINK_WriteReg(R6, 0x00000000)  returns 0x00 (0000ms, 0609ms total)
T03B4 000:873 JLINK_WriteReg(R7, 0x00000000)  returns 0x00 (0000ms, 0609ms total)
T03B4 000:873 JLINK_WriteReg(R8, 0x00000000)  returns 0x00 (0000ms, 0609ms total)
T03B4 000:873 JLINK_WriteReg(R9, 0x20001E30)  returns 0x00 (0000ms, 0609ms total)
T03B4 000:873 JLINK_WriteReg(R10, 0x00000000)  returns 0x00 (0000ms, 0609ms total)
T03B4 000:873 JLINK_WriteReg(R11, 0x00000000)  returns 0x00 (0000ms, 0609ms total)
T03B4 000:873 JLINK_WriteReg(R12, 0x00000000)  returns 0x00 (0000ms, 0609ms total)
T03B4 000:873 JLINK_WriteReg(R13 (SP), 0x2000F000)  returns 0x00 (0000ms, 0609ms total)
T03B4 000:873 JLINK_WriteReg(R14, 0x20000001)  returns 0x00 (0000ms, 0609ms total)
T03B4 000:873 JLINK_WriteReg(R15 (PC), 0x20000086)  returns 0x00 (0000ms, 0609ms total)
T03B4 000:873 JLINK_WriteReg(XPSR, 0x01000000)  returns 0x00 (0000ms, 0609ms total)
T03B4 000:873 JLINK_WriteReg(MSP, 0x2000F000)  returns 0x00 (0000ms, 0609ms total)
T03B4 000:873 JLINK_WriteReg(PSP, 0x2000F000)  returns 0x00 (0000ms, 0609ms total)
T03B4 000:873 JLINK_WriteReg(CFBP, 0x00000000)  returns 0x00 (0000ms, 0609ms total)
T03B4 000:873 JLINK_SetBPEx(Addr = 0x20000000, Type = 0xFFFFFFF2) -- CPU_ReadMem(4 bytes @ 0x20000000) -- CPU_WriteMem(4 bytes @ 0x20000000) -- CPU_ReadMem(4 bytes @ 0x20000000) -- CPU_WriteMem(4 bytes @ 0x20000000) -- CPU_ReadMem(2 bytes @ 0x20000000)  returns 0x00000001 (0003ms, 0612ms total)
T03B4 000:876 JLINK_Go() -- CPU_WriteMem(2 bytes @ 0x20000000) -- CPU_WriteMem(4 bytes @ 0xE0002008) -- CPU_WriteMem(4 bytes @ 0xE000200C) -- CPU_WriteMem(4 bytes @ 0xE0002010) -- CPU_WriteMem(4 bytes @ 0xE0002014) -- CPU_WriteMem(4 bytes @ 0xE0002018) -- CPU_WriteMem(4 bytes @ 0xE000201C) -- CPU_WriteMem(4 bytes @ 0xE0001004) (0005ms, 0617ms total)
T03B4 000:881 JLINK_IsHalted()  returns FALSE (0000ms, 0617ms total)
T03B4 000:963 JLINK_IsHalted() -- CPU_ReadMem(2 bytes @ 0x20000000)  returns TRUE (0003ms, 0620ms total)
T03B4 000:966 JLINK_ReadReg(R15 (PC))  returns 0x20000000 (0000ms, 0617ms total)
T03B4 000:966 JLINK_ClrBPEx(BPHandle = 0x00000001)  returns 0x00 (0000ms, 0617ms total)
T03B4 000:966 JLINK_ReadReg(R0)  returns 0x00000000 (0000ms, 0617ms total)
T03B4 000:966 JLINK_WriteReg(R0, 0x00403000)  returns 0x00 (0000ms, 0617ms total)
T03B4 000:966 JLINK_WriteReg(R1, 0x00001000)  returns 0x00 (0000ms, 0617ms total)
T03B4 000:966 JLINK_WriteReg(R2, 0x000000FF)  returns 0x00 (0000ms, 0617ms total)
T03B4 000:966 JLINK_WriteReg(R3, 0x00000000)  returns 0x00 (0000ms, 0617ms total)
T03B4 000:966 JLINK_WriteReg(R4, 0x00000000)  returns 0x00 (0000ms, 0617ms total)
T03B4 000:966 JLINK_WriteReg(R5, 0x00000000)  returns 0x00 (0000ms, 0617ms total)
T03B4 000:966 JLINK_WriteReg(R6, 0x00000000)  returns 0x00 (0000ms, 0617ms total)
T03B4 000:966 JLINK_WriteReg(R7, 0x00000000)  returns 0x00 (0000ms, 0617ms total)
T03B4 000:966 JLINK_WriteReg(R8, 0x00000000)  returns 0x00 (0000ms, 0617ms total)
T03B4 000:966 JLINK_WriteReg(R9, 0x20001E30)  returns 0x00 (0000ms, 0617ms total)
T03B4 000:966 JLINK_WriteReg(R10, 0x00000000)  returns 0x00 (0000ms, 0617ms total)
T03B4 000:966 JLINK_WriteReg(R11, 0x00000000)  returns 0x00 (0000ms, 0617ms total)
T03B4 000:966 JLINK_WriteReg(R12, 0x00000000)  returns 0x00 (0000ms, 0617ms total)
T03B4 000:966 JLINK_WriteReg(R13 (SP), 0x2000F000)  returns 0x00 (0000ms, 0617ms total)
T03B4 000:966 JLINK_WriteReg(R14, 0x20000001)  returns 0x00 (0000ms, 0617ms total)
T03B4 000:966 JLINK_WriteReg(R15 (PC), 0x20000020)  returns 0x00 (0000ms, 0617ms total)
T03B4 000:966 JLINK_WriteReg(XPSR, 0x01000000)  returns 0x00 (0000ms, 0617ms total)
T03B4 000:966 JLINK_WriteReg(MSP, 0x2000F000)  returns 0x00 (0000ms, 0617ms total)
T03B4 000:966 JLINK_WriteReg(PSP, 0x2000F000)  returns 0x00 (0000ms, 0617ms total)
T03B4 000:966 JLINK_WriteReg(CFBP, 0x00000000)  returns 0x00 (0000ms, 0617ms total)
T03B4 000:966 JLINK_SetBPEx(Addr = 0x20000000, Type = 0xFFFFFFF2)  returns 0x00000002 (0000ms, 0617ms total)
T03B4 000:966 JLINK_Go() (0002ms, 0619ms total)
T03B4 000:968 JLINK_IsHalted() -- CPU_ReadMem(2 bytes @ 0x20000000)  returns TRUE (0003ms, 0622ms total)
T03B4 000:971 JLINK_ReadReg(R15 (PC))  returns 0x20000000 (0000ms, 0619ms total)
T03B4 000:971 JLINK_ClrBPEx(BPHandle = 0x00000002)  returns 0x00 (0000ms, 0619ms total)
T03B4 000:971 JLINK_ReadReg(R0)  returns 0x00000001 (0000ms, 0619ms total)
T03B4 000:971 JLINK_WriteReg(R0, 0x00403000)  returns 0x00 (0000ms, 0619ms total)
T03B4 000:971 JLINK_WriteReg(R1, 0x00001000)  returns 0x00 (0000ms, 0619ms total)
T03B4 000:971 JLINK_WriteReg(R2, 0x000000FF)  returns 0x00 (0000ms, 0619ms total)
T03B4 000:971 JLINK_WriteReg(R3, 0x00000000)  returns 0x00 (0000ms, 0619ms total)
T03B4 000:971 JLINK_WriteReg(R4, 0x00000000)  returns 0x00 (0000ms, 0619ms total)
T03B4 000:971 JLINK_WriteReg(R5, 0x00000000)  returns 0x00 (0000ms, 0619ms total)
T03B4 000:971 JLINK_WriteReg(R6, 0x00000000)  returns 0x00 (0000ms, 0619ms total)
T03B4 000:971 JLINK_WriteReg(R7, 0x00000000)  returns 0x00 (0000ms, 0619ms total)
T03B4 000:971 JLINK_WriteReg(R8, 0x00000000)  returns 0x00 (0000ms, 0619ms total)
T03B4 000:971 JLINK_WriteReg(R9, 0x20001E30)  returns 0x00 (0000ms, 0619ms total)
T03B4 000:971 JLINK_WriteReg(R10, 0x00000000)  returns 0x00 (0000ms, 0619ms total)
T03B4 000:971 JLINK_WriteReg(R11, 0x00000000)  returns 0x00 (0000ms, 0619ms total)
T03B4 000:971 JLINK_WriteReg(R12, 0x00000000)  returns 0x00 (0000ms, 0619ms total)
T03B4 000:971 JLINK_WriteReg(R13 (SP), 0x2000F000)  returns 0x00 (0000ms, 0619ms total)
T03B4 000:971 JLINK_WriteReg(R14, 0x20000001)  returns 0x00 (0000ms, 0619ms total)
T03B4 000:971 JLINK_WriteReg(R15 (PC), 0x2000014E)  returns 0x00 (0000ms, 0619ms total)
T03B4 000:971 JLINK_WriteReg(XPSR, 0x01000000)  returns 0x00 (0000ms, 0619ms total)
T03B4 000:971 JLINK_WriteReg(MSP, 0x2000F000)  returns 0x00 (0000ms, 0619ms total)
T03B4 000:971 JLINK_WriteReg(PSP, 0x2000F000)  returns 0x00 (0000ms, 0619ms total)
T03B4 000:971 JLINK_WriteReg(CFBP, 0x00000000)  returns 0x00 (0000ms, 0619ms total)
T03B4 000:971 JLINK_SetBPEx(Addr = 0x20000000, Type = 0xFFFFFFF2)  returns 0x00000003 (0000ms, 0619ms total)
T03B4 000:971 JLINK_Go() (0001ms, 0620ms total)
T03B4 000:972 JLINK_IsHalted()  returns FALSE (0001ms, 0621ms total)
T03B4 000:978 JLINK_IsHalted()  returns FALSE (0000ms, 0620ms total)
T03B4 000:979 JLINK_IsHalted()  returns FALSE (0000ms, 0620ms total)
T03B4 000:980 JLINK_IsHalted()  returns FALSE (0000ms, 0620ms total)
T03B4 000:981 JLINK_IsHalted()  returns FALSE (0000ms, 0620ms total)
T03B4 000:982 JLINK_IsHalted() -- CPU_ReadMem(2 bytes @ 0x20000000)  returns TRUE (0002ms, 0622ms total)
T03B4 000:984 JLINK_ReadReg(R15 (PC))  returns 0x20000000 (0000ms, 0620ms total)
T03B4 000:984 JLINK_ClrBPEx(BPHandle = 0x00000003)  returns 0x00 (0001ms, 0621ms total)
T03B4 000:985 JLINK_ReadReg(R0)  returns 0x00000000 (0000ms, 0621ms total)
T03B4 000:985 JLINK_WriteReg(R0, 0x00404000)  returns 0x00 (0000ms, 0621ms total)
T03B4 000:985 JLINK_WriteReg(R1, 0x00001000)  returns 0x00 (0000ms, 0621ms total)
T03B4 000:985 JLINK_WriteReg(R2, 0x000000FF)  returns 0x00 (0000ms, 0621ms total)
T03B4 000:985 JLINK_WriteReg(R3, 0x00000000)  returns 0x00 (0000ms, 0621ms total)
T03B4 000:985 JLINK_WriteReg(R4, 0x00000000)  returns 0x00 (0000ms, 0621ms total)
T03B4 000:985 JLINK_WriteReg(R5, 0x00000000)  returns 0x00 (0000ms, 0621ms total)
T03B4 000:985 JLINK_WriteReg(R6, 0x00000000)  returns 0x00 (0000ms, 0621ms total)
T03B4 000:985 JLINK_WriteReg(R7, 0x00000000)  returns 0x00 (0000ms, 0621ms total)
T03B4 000:985 JLINK_WriteReg(R8, 0x00000000)  returns 0x00 (0000ms, 0621ms total)
T03B4 000:985 JLINK_WriteReg(R9, 0x20001E30)  returns 0x00 (0000ms, 0621ms total)
T03B4 000:985 JLINK_WriteReg(R10, 0x00000000)  returns 0x00 (0000ms, 0621ms total)
T03B4 000:985 JLINK_WriteReg(R11, 0x00000000)  returns 0x00 (0000ms, 0621ms total)
T03B4 000:985 JLINK_WriteReg(R12, 0x00000000)  returns 0x00 (0000ms, 0621ms total)
T03B4 000:985 JLINK_WriteReg(R13 (SP), 0x2000F000)  returns 0x00 (0000ms, 0621ms total)
T03B4 000:985 JLINK_WriteReg(R14, 0x20000001)  returns 0x00 (0000ms, 0621ms total)
T03B4 000:985 JLINK_WriteReg(R15 (PC), 0x20000020)  returns 0x00 (0000ms, 0621ms total)
T03B4 000:985 JLINK_WriteReg(XPSR, 0x01000000)  returns 0x00 (0000ms, 0621ms total)
T03B4 000:985 JLINK_WriteReg(MSP, 0x2000F000)  returns 0x00 (0000ms, 0621ms total)
T03B4 000:985 JLINK_WriteReg(PSP, 0x2000F000)  returns 0x00 (0000ms, 0621ms total)
T03B4 000:985 JLINK_WriteReg(CFBP, 0x00000000)  returns 0x00 (0000ms, 0621ms total)
T03B4 000:985 JLINK_SetBPEx(Addr = 0x20000000, Type = 0xFFFFFFF2)  returns 0x00000004 (0000ms, 0621ms total)
T03B4 000:985 JLINK_Go() (0002ms, 0623ms total)
T03B4 000:987 JLINK_IsHalted() -- CPU_ReadMem(2 bytes @ 0x20000000)  returns TRUE (0003ms, 0626ms total)
T03B4 000:990 JLINK_ReadReg(R15 (PC))  returns 0x20000000 (0000ms, 0623ms total)
T03B4 000:990 JLINK_ClrBPEx(BPHandle = 0x00000004)  returns 0x00 (0000ms, 0623ms total)
T03B4 000:990 JLINK_ReadReg(R0)  returns 0x00000001 (0000ms, 0623ms total)
T03B4 000:990 JLINK_WriteReg(R0, 0x00404000)  returns 0x00 (0000ms, 0623ms total)
T03B4 000:990 JLINK_WriteReg(R1, 0x00001000)  returns 0x00 (0000ms, 0623ms total)
T03B4 000:990 JLINK_WriteReg(R2, 0x000000FF)  returns 0x00 (0000ms, 0623ms total)
T03B4 000:990 JLINK_WriteReg(R3, 0x00000000)  returns 0x00 (0000ms, 0623ms total)
T03B4 000:990 JLINK_WriteReg(R4, 0x00000000)  returns 0x00 (0000ms, 0623ms total)
T03B4 000:990 JLINK_WriteReg(R5, 0x00000000)  returns 0x00 (0000ms, 0623ms total)
T03B4 000:990 JLINK_WriteReg(R6, 0x00000000)  returns 0x00 (0000ms, 0623ms total)
T03B4 000:990 JLINK_WriteReg(R7, 0x00000000)  returns 0x00 (0000ms, 0623ms total)
T03B4 000:990 JLINK_WriteReg(R8, 0x00000000)  returns 0x00 (0000ms, 0623ms total)
T03B4 000:990 JLINK_WriteReg(R9, 0x20001E30)  returns 0x00 (0000ms, 0623ms total)
T03B4 000:990 JLINK_WriteReg(R10, 0x00000000)  returns 0x00 (0000ms, 0623ms total)
T03B4 000:990 JLINK_WriteReg(R11, 0x00000000)  returns 0x00 (0000ms, 0623ms total)
T03B4 000:990 JLINK_WriteReg(R12, 0x00000000)  returns 0x00 (0000ms, 0623ms total)
T03B4 000:990 JLINK_WriteReg(R13 (SP), 0x2000F000)  returns 0x00 (0000ms, 0623ms total)
T03B4 000:990 JLINK_WriteReg(R14, 0x20000001)  returns 0x00 (0000ms, 0623ms total)
T03B4 000:990 JLINK_WriteReg(R15 (PC), 0x2000014E)  returns 0x00 (0000ms, 0623ms total)
T03B4 000:990 JLINK_WriteReg(XPSR, 0x01000000)  returns 0x00 (0000ms, 0623ms total)
T03B4 000:990 JLINK_WriteReg(MSP, 0x2000F000)  returns 0x00 (0000ms, 0623ms total)
T03B4 000:990 JLINK_WriteReg(PSP, 0x2000F000)  returns 0x00 (0000ms, 0623ms total)
T03B4 000:990 JLINK_WriteReg(CFBP, 0x00000000)  returns 0x00 (0000ms, 0623ms total)
T03B4 000:990 JLINK_SetBPEx(Addr = 0x20000000, Type = 0xFFFFFFF2)  returns 0x00000005 (0000ms, 0623ms total)
T03B4 000:990 JLINK_Go() (0001ms, 0624ms total)
T03B4 000:991 JLINK_IsHalted()  returns FALSE (0001ms, 0625ms total)
T03B4 000:997 JLINK_IsHalted()  returns FALSE (0000ms, 0624ms total)
T03B4 000:998 JLINK_IsHalted()  returns FALSE (0000ms, 0624ms total)
T03B4 000:999 JLINK_IsHalted()  returns FALSE (0000ms, 0624ms total)
T03B4 001:002 JLINK_IsHalted() -- CPU_ReadMem(2 bytes @ 0x20000000)  returns TRUE (0003ms, 0627ms total)
T03B4 001:005 JLINK_ReadReg(R15 (PC))  returns 0x20000000 (0000ms, 0624ms total)
T03B4 001:005 JLINK_ClrBPEx(BPHandle = 0x00000005)  returns 0x00 (0000ms, 0624ms total)
T03B4 001:005 JLINK_ReadReg(R0)  returns 0x00000000 (0000ms, 0624ms total)
T03B4 001:005 JLINK_WriteReg(R0, 0x00405000)  returns 0x00 (0000ms, 0624ms total)
T03B4 001:005 JLINK_WriteReg(R1, 0x00001000)  returns 0x00 (0000ms, 0624ms total)
T03B4 001:005 JLINK_WriteReg(R2, 0x000000FF)  returns 0x00 (0000ms, 0624ms total)
T03B4 001:005 JLINK_WriteReg(R3, 0x00000000)  returns 0x00 (0000ms, 0624ms total)
T03B4 001:005 JLINK_WriteReg(R4, 0x00000000)  returns 0x00 (0000ms, 0624ms total)
T03B4 001:005 JLINK_WriteReg(R5, 0x00000000)  returns 0x00 (0000ms, 0624ms total)
T03B4 001:005 JLINK_WriteReg(R6, 0x00000000)  returns 0x00 (0000ms, 0624ms total)
T03B4 001:005 JLINK_WriteReg(R7, 0x00000000)  returns 0x00 (0000ms, 0624ms total)
T03B4 001:005 JLINK_WriteReg(R8, 0x00000000)  returns 0x00 (0000ms, 0624ms total)
T03B4 001:005 JLINK_WriteReg(R9, 0x20001E30)  returns 0x00 (0000ms, 0624ms total)
T03B4 001:005 JLINK_WriteReg(R10, 0x00000000)  returns 0x00 (0000ms, 0624ms total)
T03B4 001:005 JLINK_WriteReg(R11, 0x00000000)  returns 0x00 (0000ms, 0624ms total)
T03B4 001:005 JLINK_WriteReg(R12, 0x00000000)  returns 0x00 (0000ms, 0624ms total)
T03B4 001:005 JLINK_WriteReg(R13 (SP), 0x2000F000)  returns 0x00 (0001ms, 0625ms total)
T03B4 001:006 JLINK_WriteReg(R14, 0x20000001)  returns 0x00 (0000ms, 0625ms total)
T03B4 001:006 JLINK_WriteReg(R15 (PC), 0x20000020)  returns 0x00 (0000ms, 0625ms total)
T03B4 001:006 JLINK_WriteReg(XPSR, 0x01000000)  returns 0x00 (0000ms, 0625ms total)
T03B4 001:006 JLINK_WriteReg(MSP, 0x2000F000)  returns 0x00 (0000ms, 0625ms total)
T03B4 001:006 JLINK_WriteReg(PSP, 0x2000F000)  returns 0x00 (0000ms, 0625ms total)
T03B4 001:006 JLINK_WriteReg(CFBP, 0x00000000)  returns 0x00 (0000ms, 0625ms total)
T03B4 001:006 JLINK_SetBPEx(Addr = 0x20000000, Type = 0xFFFFFFF2)  returns 0x00000006 (0000ms, 0625ms total)
T03B4 001:006 JLINK_Go() (0001ms, 0626ms total)
T03B4 001:007 JLINK_IsHalted() -- CPU_ReadMem(2 bytes @ 0x20000000)  returns TRUE (0003ms, 0629ms total)
T03B4 001:010 JLINK_ReadReg(R15 (PC))  returns 0x20000000 (0000ms, 0626ms total)
T03B4 001:010 JLINK_ClrBPEx(BPHandle = 0x00000006)  returns 0x00 (0000ms, 0626ms total)
T03B4 001:010 JLINK_ReadReg(R0)  returns 0x00000001 (0000ms, 0626ms total)
T03B4 001:010 JLINK_WriteReg(R0, 0x00405000)  returns 0x00 (0000ms, 0626ms total)
T03B4 001:010 JLINK_WriteReg(R1, 0x00001000)  returns 0x00 (0000ms, 0626ms total)
T03B4 001:010 JLINK_WriteReg(R2, 0x000000FF)  returns 0x00 (0000ms, 0626ms total)
T03B4 001:010 JLINK_WriteReg(R3, 0x00000000)  returns 0x00 (0000ms, 0626ms total)
T03B4 001:010 JLINK_WriteReg(R4, 0x00000000)  returns 0x00 (0000ms, 0626ms total)
T03B4 001:010 JLINK_WriteReg(R5, 0x00000000)  returns 0x00 (0000ms, 0626ms total)
T03B4 001:010 JLINK_WriteReg(R6, 0x00000000)  returns 0x00 (0000ms, 0626ms total)
T03B4 001:010 JLINK_WriteReg(R7, 0x00000000)  returns 0x00 (0000ms, 0626ms total)
T03B4 001:010 JLINK_WriteReg(R8, 0x00000000)  returns 0x00 (0000ms, 0626ms total)
T03B4 001:010 JLINK_WriteReg(R9, 0x20001E30)  returns 0x00 (0000ms, 0626ms total)
T03B4 001:010 JLINK_WriteReg(R10, 0x00000000)  returns 0x00 (0000ms, 0626ms total)
T03B4 001:010 JLINK_WriteReg(R11, 0x00000000)  returns 0x00 (0000ms, 0626ms total)
T03B4 001:010 JLINK_WriteReg(R12, 0x00000000)  returns 0x00 (0000ms, 0626ms total)
T03B4 001:010 JLINK_WriteReg(R13 (SP), 0x2000F000)  returns 0x00 (0000ms, 0626ms total)
T03B4 001:010 JLINK_WriteReg(R14, 0x20000001)  returns 0x00 (0000ms, 0626ms total)
T03B4 001:010 JLINK_WriteReg(R15 (PC), 0x2000014E)  returns 0x00 (0000ms, 0626ms total)
T03B4 001:010 JLINK_WriteReg(XPSR, 0x01000000)  returns 0x00 (0000ms, 0626ms total)
T03B4 001:010 JLINK_WriteReg(MSP, 0x2000F000)  returns 0x00 (0000ms, 0626ms total)
T03B4 001:010 JLINK_WriteReg(PSP, 0x2000F000)  returns 0x00 (0000ms, 0626ms total)
T03B4 001:010 JLINK_WriteReg(CFBP, 0x00000000)  returns 0x00 (0000ms, 0626ms total)
T03B4 001:010 JLINK_SetBPEx(Addr = 0x20000000, Type = 0xFFFFFFF2)  returns 0x00000007 (0000ms, 0626ms total)
T03B4 001:010 JLINK_Go() (0002ms, 0628ms total)
T03B4 001:012 JLINK_IsHalted()  returns FALSE (0000ms, 0628ms total)
T03B4 001:016 JLINK_IsHalted()  returns FALSE (0000ms, 0628ms total)
T03B4 001:058 JLINK_IsHalted() -- CPU_ReadMem(2 bytes @ 0x20000000)  returns TRUE (0002ms, 0630ms total)
T03B4 001:060 JLINK_ReadReg(R15 (PC))  returns 0x20000000 (0000ms, 0628ms total)
T03B4 001:060 JLINK_ClrBPEx(BPHandle = 0x00000007)  returns 0x00 (0000ms, 0628ms total)
T03B4 001:060 JLINK_ReadReg(R0)  returns 0x00000000 (0000ms, 0628ms total)
T03B4 001:061 JLINK_WriteReg(R0, 0x00406000)  returns 0x00 (0000ms, 0629ms total)
T03B4 001:061 JLINK_WriteReg(R1, 0x00001000)  returns 0x00 (0000ms, 0629ms total)
T03B4 001:061 JLINK_WriteReg(R2, 0x000000FF)  returns 0x00 (0000ms, 0629ms total)
T03B4 001:061 JLINK_WriteReg(R3, 0x00000000)  returns 0x00 (0000ms, 0629ms total)
T03B4 001:061 JLINK_WriteReg(R4, 0x00000000)  returns 0x00 (0000ms, 0629ms total)
T03B4 001:061 JLINK_WriteReg(R5, 0x00000000)  returns 0x00 (0000ms, 0629ms total)
T03B4 001:061 JLINK_WriteReg(R6, 0x00000000)  returns 0x00 (0000ms, 0629ms total)
T03B4 001:061 JLINK_WriteReg(R7, 0x00000000)  returns 0x00 (0000ms, 0629ms total)
T03B4 001:061 JLINK_WriteReg(R8, 0x00000000)  returns 0x00 (0000ms, 0629ms total)
T03B4 001:061 JLINK_WriteReg(R9, 0x20001E30)  returns 0x00 (0000ms, 0629ms total)
T03B4 001:061 JLINK_WriteReg(R10, 0x00000000)  returns 0x00 (0000ms, 0629ms total)
T03B4 001:061 JLINK_WriteReg(R11, 0x00000000)  returns 0x00 (0000ms, 0629ms total)
T03B4 001:061 JLINK_WriteReg(R12, 0x00000000)  returns 0x00 (0000ms, 0629ms total)
T03B4 001:061 JLINK_WriteReg(R13 (SP), 0x2000F000)  returns 0x00 (0000ms, 0629ms total)
T03B4 001:061 JLINK_WriteReg(R14, 0x20000001)  returns 0x00 (0000ms, 0629ms total)
T03B4 001:061 JLINK_WriteReg(R15 (PC), 0x20000020)  returns 0x00 (0000ms, 0629ms total)
T03B4 001:061 JLINK_WriteReg(XPSR, 0x01000000)  returns 0x00 (0000ms, 0629ms total)
T03B4 001:061 JLINK_WriteReg(MSP, 0x2000F000)  returns 0x00 (0000ms, 0629ms total)
T03B4 001:061 JLINK_WriteReg(PSP, 0x2000F000)  returns 0x00 (0000ms, 0629ms total)
T03B4 001:061 JLINK_WriteReg(CFBP, 0x00000000)  returns 0x00 (0000ms, 0629ms total)
T03B4 001:061 JLINK_SetBPEx(Addr = 0x20000000, Type = 0xFFFFFFF2)  returns 0x00000008 (0000ms, 0629ms total)
T03B4 001:061 JLINK_Go() (0002ms, 0631ms total)
T03B4 001:063 JLINK_IsHalted() -- CPU_ReadMem(2 bytes @ 0x20000000)  returns TRUE (0003ms, 0634ms total)
T03B4 001:066 JLINK_ReadReg(R15 (PC))  returns 0x20000000 (0000ms, 0631ms total)
T03B4 001:066 JLINK_ClrBPEx(BPHandle = 0x00000008)  returns 0x00 (0000ms, 0631ms total)
T03B4 001:066 JLINK_ReadReg(R0)  returns 0x00000001 (0000ms, 0631ms total)
T03B4 001:066 JLINK_WriteReg(R0, 0x00406000)  returns 0x00 (0000ms, 0631ms total)
T03B4 001:066 JLINK_WriteReg(R1, 0x00001000)  returns 0x00 (0000ms, 0631ms total)
T03B4 001:066 JLINK_WriteReg(R2, 0x000000FF)  returns 0x00 (0000ms, 0631ms total)
T03B4 001:066 JLINK_WriteReg(R3, 0x00000000)  returns 0x00 (0000ms, 0631ms total)
T03B4 001:066 JLINK_WriteReg(R4, 0x00000000)  returns 0x00 (0000ms, 0631ms total)
T03B4 001:066 JLINK_WriteReg(R5, 0x00000000)  returns 0x00 (0000ms, 0631ms total)
T03B4 001:066 JLINK_WriteReg(R6, 0x00000000)  returns 0x00 (0000ms, 0631ms total)
T03B4 001:066 JLINK_WriteReg(R7, 0x00000000)  returns 0x00 (0000ms, 0631ms total)
T03B4 001:066 JLINK_WriteReg(R8, 0x00000000)  returns 0x00 (0000ms, 0631ms total)
T03B4 001:066 JLINK_WriteReg(R9, 0x20001E30)  returns 0x00 (0000ms, 0631ms total)
T03B4 001:066 JLINK_WriteReg(R10, 0x00000000)  returns 0x00 (0000ms, 0631ms total)
T03B4 001:066 JLINK_WriteReg(R11, 0x00000000)  returns 0x00 (0000ms, 0631ms total)
T03B4 001:066 JLINK_WriteReg(R12, 0x00000000)  returns 0x00 (0000ms, 0631ms total)
T03B4 001:066 JLINK_WriteReg(R13 (SP), 0x2000F000)  returns 0x00 (0000ms, 0631ms total)
T03B4 001:066 JLINK_WriteReg(R14, 0x20000001)  returns 0x00 (0000ms, 0631ms total)
T03B4 001:066 JLINK_WriteReg(R15 (PC), 0x2000014E)  returns 0x00 (0000ms, 0631ms total)
T03B4 001:066 JLINK_WriteReg(XPSR, 0x01000000)  returns 0x00 (0000ms, 0631ms total)
T03B4 001:066 JLINK_WriteReg(MSP, 0x2000F000)  returns 0x00 (0000ms, 0631ms total)
T03B4 001:066 JLINK_WriteReg(PSP, 0x2000F000)  returns 0x00 (0000ms, 0631ms total)
T03B4 001:066 JLINK_WriteReg(CFBP, 0x00000000)  returns 0x00 (0000ms, 0631ms total)
T03B4 001:066 JLINK_SetBPEx(Addr = 0x20000000, Type = 0xFFFFFFF2)  returns 0x00000009 (0000ms, 0631ms total)
T03B4 001:066 JLINK_Go() (0001ms, 0632ms total)
T03B4 001:067 JLINK_IsHalted()  returns FALSE (0001ms, 0633ms total)
T03B4 001:071 JLINK_IsHalted()  returns FALSE (0000ms, 0632ms total)
T03B4 001:072 JLINK_IsHalted()  returns FALSE (0000ms, 0632ms total)
T03B4 001:074 JLINK_IsHalted()  returns FALSE (0000ms, 0632ms total)
T03B4 001:075 JLINK_IsHalted()  returns FALSE (0000ms, 0632ms total)
T03B4 001:076 JLINK_IsHalted()  returns FALSE (0000ms, 0632ms total)
T03B4 001:077 JLINK_IsHalted() -- CPU_ReadMem(2 bytes @ 0x20000000)  returns TRUE (0003ms, 0635ms total)
T03B4 001:080 JLINK_ReadReg(R15 (PC))  returns 0x20000000 (0000ms, 0632ms total)
T03B4 001:080 JLINK_ClrBPEx(BPHandle = 0x00000009)  returns 0x00 (0000ms, 0632ms total)
T03B4 001:080 JLINK_ReadReg(R0)  returns 0x00000000 (0000ms, 0632ms total)
T03B4 001:080 JLINK_WriteReg(R0, 0x00407000)  returns 0x00 (0000ms, 0632ms total)
T03B4 001:080 JLINK_WriteReg(R1, 0x00001000)  returns 0x00 (0000ms, 0632ms total)
T03B4 001:080 JLINK_WriteReg(R2, 0x000000FF)  returns 0x00 (0000ms, 0632ms total)
T03B4 001:080 JLINK_WriteReg(R3, 0x00000000)  returns 0x00 (0000ms, 0632ms total)
T03B4 001:080 JLINK_WriteReg(R4, 0x00000000)  returns 0x00 (0000ms, 0632ms total)
T03B4 001:080 JLINK_WriteReg(R5, 0x00000000)  returns 0x00 (0000ms, 0632ms total)
T03B4 001:080 JLINK_WriteReg(R6, 0x00000000)  returns 0x00 (0000ms, 0632ms total)
T03B4 001:080 JLINK_WriteReg(R7, 0x00000000)  returns 0x00 (0000ms, 0632ms total)
T03B4 001:080 JLINK_WriteReg(R8, 0x00000000)  returns 0x00 (0000ms, 0632ms total)
T03B4 001:080 JLINK_WriteReg(R9, 0x20001E30)  returns 0x00 (0000ms, 0632ms total)
T03B4 001:080 JLINK_WriteReg(R10, 0x00000000)  returns 0x00 (0000ms, 0632ms total)
T03B4 001:080 JLINK_WriteReg(R11, 0x00000000)  returns 0x00 (0000ms, 0632ms total)
T03B4 001:080 JLINK_WriteReg(R12, 0x00000000)  returns 0x00 (0000ms, 0632ms total)
T03B4 001:080 JLINK_WriteReg(R13 (SP), 0x2000F000)  returns 0x00 (0000ms, 0632ms total)
T03B4 001:080 JLINK_WriteReg(R14, 0x20000001)  returns 0x00 (0000ms, 0632ms total)
T03B4 001:080 JLINK_WriteReg(R15 (PC), 0x20000020)  returns 0x00 (0000ms, 0632ms total)
T03B4 001:080 JLINK_WriteReg(XPSR, 0x01000000)  returns 0x00 (0000ms, 0632ms total)
T03B4 001:080 JLINK_WriteReg(MSP, 0x2000F000)  returns 0x00 (0000ms, 0632ms total)
T03B4 001:080 JLINK_WriteReg(PSP, 0x2000F000)  returns 0x00 (0000ms, 0632ms total)
T03B4 001:080 JLINK_WriteReg(CFBP, 0x00000000)  returns 0x00 (0000ms, 0632ms total)
T03B4 001:080 JLINK_SetBPEx(Addr = 0x20000000, Type = 0xFFFFFFF2)  returns 0x0000000A (0000ms, 0632ms total)
T03B4 001:080 JLINK_Go() (0002ms, 0634ms total)
T03B4 001:082 JLINK_IsHalted() -- CPU_ReadMem(2 bytes @ 0x20000000)  returns TRUE (0003ms, 0637ms total)
T03B4 001:085 JLINK_ReadReg(R15 (PC))  returns 0x20000000 (0000ms, 0634ms total)
T03B4 001:085 JLINK_ClrBPEx(BPHandle = 0x0000000A)  returns 0x00 (0000ms, 0634ms total)
T03B4 001:085 JLINK_ReadReg(R0)  returns 0x00000001 (0000ms, 0634ms total)
T03B4 001:085 JLINK_WriteReg(R0, 0x00407000)  returns 0x00 (0000ms, 0634ms total)
T03B4 001:085 JLINK_WriteReg(R1, 0x00001000)  returns 0x00 (0000ms, 0634ms total)
T03B4 001:085 JLINK_WriteReg(R2, 0x000000FF)  returns 0x00 (0000ms, 0634ms total)
T03B4 001:085 JLINK_WriteReg(R3, 0x00000000)  returns 0x00 (0000ms, 0634ms total)
T03B4 001:085 JLINK_WriteReg(R4, 0x00000000)  returns 0x00 (0000ms, 0634ms total)
T03B4 001:085 JLINK_WriteReg(R5, 0x00000000)  returns 0x00 (0000ms, 0634ms total)
T03B4 001:085 JLINK_WriteReg(R6, 0x00000000)  returns 0x00 (0000ms, 0634ms total)
T03B4 001:085 JLINK_WriteReg(R7, 0x00000000)  returns 0x00 (0000ms, 0634ms total)
T03B4 001:085 JLINK_WriteReg(R8, 0x00000000)  returns 0x00 (0000ms, 0634ms total)
T03B4 001:085 JLINK_WriteReg(R9, 0x20001E30)  returns 0x00 (0000ms, 0634ms total)
T03B4 001:085 JLINK_WriteReg(R10, 0x00000000)  returns 0x00 (0000ms, 0634ms total)
T03B4 001:085 JLINK_WriteReg(R11, 0x00000000)  returns 0x00 (0000ms, 0634ms total)
T03B4 001:085 JLINK_WriteReg(R12, 0x00000000)  returns 0x00 (0000ms, 0634ms total)
T03B4 001:085 JLINK_WriteReg(R13 (SP), 0x2000F000)  returns 0x00 (0000ms, 0634ms total)
T03B4 001:085 JLINK_WriteReg(R14, 0x20000001)  returns 0x00 (0000ms, 0634ms total)
T03B4 001:085 JLINK_WriteReg(R15 (PC), 0x2000014E)  returns 0x00 (0000ms, 0634ms total)
T03B4 001:085 JLINK_WriteReg(XPSR, 0x01000000)  returns 0x00 (0000ms, 0634ms total)
T03B4 001:085 JLINK_WriteReg(MSP, 0x2000F000)  returns 0x00 (0000ms, 0634ms total)
T03B4 001:085 JLINK_WriteReg(PSP, 0x2000F000)  returns 0x00 (0000ms, 0634ms total)
T03B4 001:085 JLINK_WriteReg(CFBP, 0x00000000)  returns 0x00 (0000ms, 0634ms total)
T03B4 001:085 JLINK_SetBPEx(Addr = 0x20000000, Type = 0xFFFFFFF2)  returns 0x0000000B (0000ms, 0634ms total)
T03B4 001:085 JLINK_Go() (0001ms, 0635ms total)
T03B4 001:086 JLINK_IsHalted()  returns FALSE (0001ms, 0636ms total)
T03B4 001:092 JLINK_IsHalted()  returns FALSE (0000ms, 0635ms total)
T03B4 001:093 JLINK_IsHalted()  returns FALSE (0000ms, 0635ms total)
T03B4 001:099 JLINK_IsHalted() -- CPU_ReadMem(2 bytes @ 0x20000000)  returns TRUE (0002ms, 0637ms total)
T03B4 001:101 JLINK_ReadReg(R15 (PC))  returns 0x20000000 (0001ms, 0636ms total)
T03B4 001:102 JLINK_ClrBPEx(BPHandle = 0x0000000B)  returns 0x00 (0000ms, 0636ms total)
T03B4 001:102 JLINK_ReadReg(R0)  returns 0x00000000 (0000ms, 0636ms total)
T03B4 001:102 JLINK_WriteReg(R0, 0x00408000)  returns 0x00 (0000ms, 0636ms total)
T03B4 001:102 JLINK_WriteReg(R1, 0x00001000)  returns 0x00 (0000ms, 0636ms total)
T03B4 001:102 JLINK_WriteReg(R2, 0x000000FF)  returns 0x00 (0000ms, 0636ms total)
T03B4 001:102 JLINK_WriteReg(R3, 0x00000000)  returns 0x00 (0000ms, 0636ms total)
T03B4 001:102 JLINK_WriteReg(R4, 0x00000000)  returns 0x00 (0000ms, 0636ms total)
T03B4 001:102 JLINK_WriteReg(R5, 0x00000000)  returns 0x00 (0000ms, 0636ms total)
T03B4 001:102 JLINK_WriteReg(R6, 0x00000000)  returns 0x00 (0000ms, 0636ms total)
T03B4 001:102 JLINK_WriteReg(R7, 0x00000000)  returns 0x00 (0000ms, 0636ms total)
T03B4 001:102 JLINK_WriteReg(R8, 0x00000000)  returns 0x00 (0000ms, 0636ms total)
T03B4 001:102 JLINK_WriteReg(R9, 0x20001E30)  returns 0x00 (0000ms, 0636ms total)
T03B4 001:102 JLINK_WriteReg(R10, 0x00000000)  returns 0x00 (0000ms, 0636ms total)
T03B4 001:102 JLINK_WriteReg(R11, 0x00000000)  returns 0x00 (0000ms, 0636ms total)
T03B4 001:102 JLINK_WriteReg(R12, 0x00000000)  returns 0x00 (0000ms, 0636ms total)
T03B4 001:102 JLINK_WriteReg(R13 (SP), 0x2000F000)  returns 0x00 (0000ms, 0636ms total)
T03B4 001:102 JLINK_WriteReg(R14, 0x20000001)  returns 0x00 (0000ms, 0636ms total)
T03B4 001:102 JLINK_WriteReg(R15 (PC), 0x20000020)  returns 0x00 (0000ms, 0636ms total)
T03B4 001:102 JLINK_WriteReg(XPSR, 0x01000000)  returns 0x00 (0000ms, 0636ms total)
T03B4 001:102 JLINK_WriteReg(MSP, 0x2000F000)  returns 0x00 (0000ms, 0636ms total)
T03B4 001:102 JLINK_WriteReg(PSP, 0x2000F000)  returns 0x00 (0000ms, 0636ms total)
T03B4 001:102 JLINK_WriteReg(CFBP, 0x00000000)  returns 0x00 (0000ms, 0636ms total)
T03B4 001:102 JLINK_SetBPEx(Addr = 0x20000000, Type = 0xFFFFFFF2)  returns 0x0000000C (0000ms, 0636ms total)
T03B4 001:102 JLINK_Go() (0002ms, 0638ms total)
T03B4 001:104 JLINK_IsHalted() -- CPU_ReadMem(2 bytes @ 0x20000000)  returns TRUE (0003ms, 0641ms total)
T03B4 001:107 JLINK_ReadReg(R15 (PC))  returns 0x20000000 (0000ms, 0638ms total)
T03B4 001:107 JLINK_ClrBPEx(BPHandle = 0x0000000C)  returns 0x00 (0000ms, 0638ms total)
T03B4 001:107 JLINK_ReadReg(R0)  returns 0x00000001 (0000ms, 0638ms total)
T03B4 001:107 JLINK_WriteReg(R0, 0x00408000)  returns 0x00 (0000ms, 0638ms total)
T03B4 001:107 JLINK_WriteReg(R1, 0x00001000)  returns 0x00 (0000ms, 0638ms total)
T03B4 001:107 JLINK_WriteReg(R2, 0x000000FF)  returns 0x00 (0000ms, 0638ms total)
T03B4 001:107 JLINK_WriteReg(R3, 0x00000000)  returns 0x00 (0000ms, 0638ms total)
T03B4 001:107 JLINK_WriteReg(R4, 0x00000000)  returns 0x00 (0000ms, 0638ms total)
T03B4 001:107 JLINK_WriteReg(R5, 0x00000000)  returns 0x00 (0000ms, 0638ms total)
T03B4 001:107 JLINK_WriteReg(R6, 0x00000000)  returns 0x00 (0000ms, 0638ms total)
T03B4 001:107 JLINK_WriteReg(R7, 0x00000000)  returns 0x00 (0000ms, 0638ms total)
T03B4 001:107 JLINK_WriteReg(R8, 0x00000000)  returns 0x00 (0000ms, 0638ms total)
T03B4 001:107 JLINK_WriteReg(R9, 0x20001E30)  returns 0x00 (0000ms, 0638ms total)
T03B4 001:107 JLINK_WriteReg(R10, 0x00000000)  returns 0x00 (0000ms, 0638ms total)
T03B4 001:107 JLINK_WriteReg(R11, 0x00000000)  returns 0x00 (0000ms, 0638ms total)
T03B4 001:107 JLINK_WriteReg(R12, 0x00000000)  returns 0x00 (0000ms, 0638ms total)
T03B4 001:107 JLINK_WriteReg(R13 (SP), 0x2000F000)  returns 0x00 (0000ms, 0638ms total)
T03B4 001:107 JLINK_WriteReg(R14, 0x20000001)  returns 0x00 (0000ms, 0638ms total)
T03B4 001:107 JLINK_WriteReg(R15 (PC), 0x2000014E)  returns 0x00 (0000ms, 0638ms total)
T03B4 001:107 JLINK_WriteReg(XPSR, 0x01000000)  returns 0x00 (0000ms, 0638ms total)
T03B4 001:107 JLINK_WriteReg(MSP, 0x2000F000)  returns 0x00 (0000ms, 0638ms total)
T03B4 001:107 JLINK_WriteReg(PSP, 0x2000F000)  returns 0x00 (0000ms, 0638ms total)
T03B4 001:107 JLINK_WriteReg(CFBP, 0x00000000)  returns 0x00 (0000ms, 0638ms total)
T03B4 001:107 JLINK_SetBPEx(Addr = 0x20000000, Type = 0xFFFFFFF2)  returns 0x0000000D (0000ms, 0638ms total)
T03B4 001:107 JLINK_Go() (0001ms, 0639ms total)
T03B4 001:108 JLINK_IsHalted()  returns FALSE (0001ms, 0640ms total)
T03B4 001:112 JLINK_IsHalted()  returns FALSE (0000ms, 0639ms total)
T03B4 001:113 JLINK_IsHalted()  returns FALSE (0000ms, 0639ms total)
T03B4 001:114 JLINK_IsHalted()  returns FALSE (0000ms, 0639ms total)
T03B4 001:115 JLINK_IsHalted()  returns FALSE (0000ms, 0639ms total)
T03B4 001:116 JLINK_IsHalted()  returns FALSE (0000ms, 0639ms total)
T03B4 001:117 JLINK_IsHalted()  returns FALSE (0000ms, 0639ms total)
T03B4 001:118 JLINK_IsHalted() -- CPU_ReadMem(2 bytes @ 0x20000000)  returns TRUE (0002ms, 0641ms total)
T03B4 001:120 JLINK_ReadReg(R15 (PC))  returns 0x20000000 (0000ms, 0639ms total)
T03B4 001:120 JLINK_ClrBPEx(BPHandle = 0x0000000D)  returns 0x00 (0000ms, 0639ms total)
T03B4 001:120 JLINK_ReadReg(R0)  returns 0x00000000 (0000ms, 0639ms total)
T03B4 001:121 JLINK_WriteReg(R0, 0x00409000)  returns 0x00 (0000ms, 0639ms total)
T03B4 001:121 JLINK_WriteReg(R1, 0x00001000)  returns 0x00 (0000ms, 0639ms total)
T03B4 001:121 JLINK_WriteReg(R2, 0x000000FF)  returns 0x00 (0000ms, 0639ms total)
T03B4 001:121 JLINK_WriteReg(R3, 0x00000000)  returns 0x00 (0000ms, 0639ms total)
T03B4 001:121 JLINK_WriteReg(R4, 0x00000000)  returns 0x00 (0000ms, 0639ms total)
T03B4 001:121 JLINK_WriteReg(R5, 0x00000000)  returns 0x00 (0000ms, 0639ms total)
T03B4 001:121 JLINK_WriteReg(R6, 0x00000000)  returns 0x00 (0000ms, 0639ms total)
T03B4 001:121 JLINK_WriteReg(R7, 0x00000000)  returns 0x00 (0000ms, 0639ms total)
T03B4 001:121 JLINK_WriteReg(R8, 0x00000000)  returns 0x00 (0000ms, 0639ms total)
T03B4 001:121 JLINK_WriteReg(R9, 0x20001E30)  returns 0x00 (0000ms, 0639ms total)
T03B4 001:121 JLINK_WriteReg(R10, 0x00000000)  returns 0x00 (0000ms, 0639ms total)
T03B4 001:121 JLINK_WriteReg(R11, 0x00000000)  returns 0x00 (0000ms, 0639ms total)
T03B4 001:121 JLINK_WriteReg(R12, 0x00000000)  returns 0x00 (0000ms, 0639ms total)
T03B4 001:121 JLINK_WriteReg(R13 (SP), 0x2000F000)  returns 0x00 (0000ms, 0639ms total)
T03B4 001:121 JLINK_WriteReg(R14, 0x20000001)  returns 0x00 (0000ms, 0639ms total)
T03B4 001:121 JLINK_WriteReg(R15 (PC), 0x20000020)  returns 0x00 (0000ms, 0639ms total)
T03B4 001:121 JLINK_WriteReg(XPSR, 0x01000000)  returns 0x00 (0000ms, 0639ms total)
T03B4 001:121 JLINK_WriteReg(MSP, 0x2000F000)  returns 0x00 (0000ms, 0639ms total)
T03B4 001:121 JLINK_WriteReg(PSP, 0x2000F000)  returns 0x00 (0000ms, 0639ms total)
T03B4 001:121 JLINK_WriteReg(CFBP, 0x00000000)  returns 0x00 (0000ms, 0639ms total)
T03B4 001:121 JLINK_SetBPEx(Addr = 0x20000000, Type = 0xFFFFFFF2)  returns 0x0000000E (0000ms, 0639ms total)
T03B4 001:121 JLINK_Go() (0001ms, 0640ms total)
T03B4 001:122 JLINK_IsHalted() -- CPU_ReadMem(2 bytes @ 0x20000000)  returns TRUE (0003ms, 0643ms total)
T03B4 001:125 JLINK_ReadReg(R15 (PC))  returns 0x20000000 (0000ms, 0640ms total)
T03B4 001:125 JLINK_ClrBPEx(BPHandle = 0x0000000E)  returns 0x00 (0000ms, 0640ms total)
T03B4 001:125 JLINK_ReadReg(R0)  returns 0x00000001 (0000ms, 0640ms total)
T03B4 001:125 JLINK_WriteReg(R0, 0x00409000)  returns 0x00 (0000ms, 0640ms total)
T03B4 001:125 JLINK_WriteReg(R1, 0x00001000)  returns 0x00 (0000ms, 0640ms total)
T03B4 001:125 JLINK_WriteReg(R2, 0x000000FF)  returns 0x00 (0000ms, 0640ms total)
T03B4 001:125 JLINK_WriteReg(R3, 0x00000000)  returns 0x00 (0000ms, 0640ms total)
T03B4 001:125 JLINK_WriteReg(R4, 0x00000000)  returns 0x00 (0000ms, 0640ms total)
T03B4 001:125 JLINK_WriteReg(R5, 0x00000000)  returns 0x00 (0000ms, 0640ms total)
T03B4 001:125 JLINK_WriteReg(R6, 0x00000000)  returns 0x00 (0000ms, 0640ms total)
T03B4 001:125 JLINK_WriteReg(R7, 0x00000000)  returns 0x00 (0000ms, 0640ms total)
T03B4 001:125 JLINK_WriteReg(R8, 0x00000000)  returns 0x00 (0000ms, 0640ms total)
T03B4 001:125 JLINK_WriteReg(R9, 0x20001E30)  returns 0x00 (0000ms, 0640ms total)
T03B4 001:125 JLINK_WriteReg(R10, 0x00000000)  returns 0x00 (0000ms, 0640ms total)
T03B4 001:125 JLINK_WriteReg(R11, 0x00000000)  returns 0x00 (0001ms, 0641ms total)
T03B4 001:126 JLINK_WriteReg(R12, 0x00000000)  returns 0x00 (0000ms, 0641ms total)
T03B4 001:126 JLINK_WriteReg(R13 (SP), 0x2000F000)  returns 0x00 (0000ms, 0641ms total)
T03B4 001:126 JLINK_WriteReg(R14, 0x20000001)  returns 0x00 (0000ms, 0641ms total)
T03B4 001:126 JLINK_WriteReg(R15 (PC), 0x2000014E)  returns 0x00 (0000ms, 0641ms total)
T03B4 001:126 JLINK_WriteReg(XPSR, 0x01000000)  returns 0x00 (0000ms, 0641ms total)
T03B4 001:126 JLINK_WriteReg(MSP, 0x2000F000)  returns 0x00 (0000ms, 0641ms total)
T03B4 001:126 JLINK_WriteReg(PSP, 0x2000F000)  returns 0x00 (0000ms, 0641ms total)
T03B4 001:126 JLINK_WriteReg(CFBP, 0x00000000)  returns 0x00 (0000ms, 0641ms total)
T03B4 001:126 JLINK_SetBPEx(Addr = 0x20000000, Type = 0xFFFFFFF2)  returns 0x0000000F (0000ms, 0641ms total)
T03B4 001:126 JLINK_Go() (0001ms, 0642ms total)
T03B4 001:127 JLINK_IsHalted()  returns FALSE (0001ms, 0643ms total)
T03B4 001:161 JLINK_IsHalted() -- CPU_ReadMem(2 bytes @ 0x20000000)  returns TRUE (0003ms, 0645ms total)
T03B4 001:164 JLINK_ReadReg(R15 (PC))  returns 0x20000000 (0000ms, 0642ms total)
T03B4 001:164 JLINK_ClrBPEx(BPHandle = 0x0000000F)  returns 0x00 (0000ms, 0642ms total)
T03B4 001:164 JLINK_ReadReg(R0)  returns 0x00000000 (0000ms, 0642ms total)
T03B4 001:164 JLINK_WriteReg(R0, 0x0040A000)  returns 0x00 (0000ms, 0642ms total)
T03B4 001:164 JLINK_WriteReg(R1, 0x00001000)  returns 0x00 (0000ms, 0642ms total)
T03B4 001:164 JLINK_WriteReg(R2, 0x000000FF)  returns 0x00 (0000ms, 0642ms total)
T03B4 001:164 JLINK_WriteReg(R3, 0x00000000)  returns 0x00 (0000ms, 0642ms total)
T03B4 001:164 JLINK_WriteReg(R4, 0x00000000)  returns 0x00 (0000ms, 0642ms total)
T03B4 001:164 JLINK_WriteReg(R5, 0x00000000)  returns 0x00 (0000ms, 0642ms total)
T03B4 001:164 JLINK_WriteReg(R6, 0x00000000)  returns 0x00 (0000ms, 0642ms total)
T03B4 001:164 JLINK_WriteReg(R7, 0x00000000)  returns 0x00 (0000ms, 0642ms total)
T03B4 001:164 JLINK_WriteReg(R8, 0x00000000)  returns 0x00 (0000ms, 0642ms total)
T03B4 001:164 JLINK_WriteReg(R9, 0x20001E30)  returns 0x00 (0000ms, 0642ms total)
T03B4 001:164 JLINK_WriteReg(R10, 0x00000000)  returns 0x00 (0000ms, 0642ms total)
T03B4 001:164 JLINK_WriteReg(R11, 0x00000000)  returns 0x00 (0000ms, 0642ms total)
T03B4 001:164 JLINK_WriteReg(R12, 0x00000000)  returns 0x00 (0000ms, 0642ms total)
T03B4 001:164 JLINK_WriteReg(R13 (SP), 0x2000F000)  returns 0x00 (0000ms, 0642ms total)
T03B4 001:164 JLINK_WriteReg(R14, 0x20000001)  returns 0x00 (0000ms, 0642ms total)
T03B4 001:164 JLINK_WriteReg(R15 (PC), 0x20000020)  returns 0x00 (0000ms, 0642ms total)
T03B4 001:164 JLINK_WriteReg(XPSR, 0x01000000)  returns 0x00 (0000ms, 0642ms total)
T03B4 001:164 JLINK_WriteReg(MSP, 0x2000F000)  returns 0x00 (0000ms, 0642ms total)
T03B4 001:164 JLINK_WriteReg(PSP, 0x2000F000)  returns 0x00 (0000ms, 0642ms total)
T03B4 001:164 JLINK_WriteReg(CFBP, 0x00000000)  returns 0x00 (0000ms, 0642ms total)
T03B4 001:164 JLINK_SetBPEx(Addr = 0x20000000, Type = 0xFFFFFFF2)  returns 0x00000010 (0000ms, 0642ms total)
T03B4 001:164 JLINK_Go() (0002ms, 0644ms total)
T03B4 001:166 JLINK_IsHalted() -- CPU_ReadMem(2 bytes @ 0x20000000)  returns TRUE (0003ms, 0647ms total)
T03B4 001:169 JLINK_ReadReg(R15 (PC))  returns 0x20000000 (0000ms, 0644ms total)
T03B4 001:169 JLINK_ClrBPEx(BPHandle = 0x00000010)  returns 0x00 (0000ms, 0644ms total)
T03B4 001:169 JLINK_ReadReg(R0)  returns 0x00000001 (0000ms, 0644ms total)
T03B4 001:169 JLINK_WriteReg(R0, 0x0040A000)  returns 0x00 (0000ms, 0644ms total)
T03B4 001:169 JLINK_WriteReg(R1, 0x00001000)  returns 0x00 (0000ms, 0644ms total)
T03B4 001:169 JLINK_WriteReg(R2, 0x000000FF)  returns 0x00 (0000ms, 0644ms total)
T03B4 001:169 JLINK_WriteReg(R3, 0x00000000)  returns 0x00 (0000ms, 0644ms total)
T03B4 001:169 JLINK_WriteReg(R4, 0x00000000)  returns 0x00 (0000ms, 0644ms total)
T03B4 001:169 JLINK_WriteReg(R5, 0x00000000)  returns 0x00 (0000ms, 0644ms total)
T03B4 001:169 JLINK_WriteReg(R6, 0x00000000)  returns 0x00 (0000ms, 0644ms total)
T03B4 001:169 JLINK_WriteReg(R7, 0x00000000)  returns 0x00 (0000ms, 0644ms total)
T03B4 001:169 JLINK_WriteReg(R8, 0x00000000)  returns 0x00 (0000ms, 0644ms total)
T03B4 001:169 JLINK_WriteReg(R9, 0x20001E30)  returns 0x00 (0000ms, 0644ms total)
T03B4 001:169 JLINK_WriteReg(R10, 0x00000000)  returns 0x00 (0000ms, 0644ms total)
T03B4 001:169 JLINK_WriteReg(R11, 0x00000000)  returns 0x00 (0000ms, 0644ms total)
T03B4 001:169 JLINK_WriteReg(R12, 0x00000000)  returns 0x00 (0000ms, 0644ms total)
T03B4 001:169 JLINK_WriteReg(R13 (SP), 0x2000F000)  returns 0x00 (0000ms, 0644ms total)
T03B4 001:169 JLINK_WriteReg(R14, 0x20000001)  returns 0x00 (0000ms, 0644ms total)
T03B4 001:169 JLINK_WriteReg(R15 (PC), 0x2000014E)  returns 0x00 (0000ms, 0644ms total)
T03B4 001:169 JLINK_WriteReg(XPSR, 0x01000000)  returns 0x00 (0000ms, 0644ms total)
T03B4 001:169 JLINK_WriteReg(MSP, 0x2000F000)  returns 0x00 (0000ms, 0644ms total)
T03B4 001:169 JLINK_WriteReg(PSP, 0x2000F000)  returns 0x00 (0000ms, 0644ms total)
T03B4 001:169 JLINK_WriteReg(CFBP, 0x00000000)  returns 0x00 (0000ms, 0644ms total)
T03B4 001:169 JLINK_SetBPEx(Addr = 0x20000000, Type = 0xFFFFFFF2)  returns 0x00000011 (0000ms, 0644ms total)
T03B4 001:169 JLINK_Go() (0001ms, 0645ms total)
T03B4 001:170 JLINK_IsHalted()  returns FALSE (0001ms, 0646ms total)
T03B4 001:176 JLINK_IsHalted()  returns FALSE (0000ms, 0645ms total)
T03B4 001:177 JLINK_IsHalted()  returns FALSE (0000ms, 0645ms total)
T03B4 001:178 JLINK_IsHalted()  returns FALSE (0000ms, 0645ms total)
T03B4 001:179 JLINK_IsHalted()  returns FALSE (0000ms, 0645ms total)
T03B4 001:180 JLINK_IsHalted() -- CPU_ReadMem(2 bytes @ 0x20000000)  returns TRUE (0003ms, 0648ms total)
T03B4 001:183 JLINK_ReadReg(R15 (PC))  returns 0x20000000 (0000ms, 0645ms total)
T03B4 001:183 JLINK_ClrBPEx(BPHandle = 0x00000011)  returns 0x00 (0000ms, 0645ms total)
T03B4 001:183 JLINK_ReadReg(R0)  returns 0x00000000 (0000ms, 0645ms total)
T03B4 001:183 JLINK_WriteReg(R0, 0x0040B000)  returns 0x00 (0000ms, 0645ms total)
T03B4 001:183 JLINK_WriteReg(R1, 0x00001000)  returns 0x00 (0000ms, 0645ms total)
T03B4 001:183 JLINK_WriteReg(R2, 0x000000FF)  returns 0x00 (0000ms, 0645ms total)
T03B4 001:183 JLINK_WriteReg(R3, 0x00000000)  returns 0x00 (0000ms, 0645ms total)
T03B4 001:183 JLINK_WriteReg(R4, 0x00000000)  returns 0x00 (0000ms, 0645ms total)
T03B4 001:183 JLINK_WriteReg(R5, 0x00000000)  returns 0x00 (0000ms, 0645ms total)
T03B4 001:183 JLINK_WriteReg(R6, 0x00000000)  returns 0x00 (0000ms, 0645ms total)
T03B4 001:183 JLINK_WriteReg(R7, 0x00000000)  returns 0x00 (0000ms, 0645ms total)
T03B4 001:183 JLINK_WriteReg(R8, 0x00000000)  returns 0x00 (0000ms, 0645ms total)
T03B4 001:183 JLINK_WriteReg(R9, 0x20001E30)  returns 0x00 (0000ms, 0645ms total)
T03B4 001:183 JLINK_WriteReg(R10, 0x00000000)  returns 0x00 (0000ms, 0645ms total)
T03B4 001:183 JLINK_WriteReg(R11, 0x00000000)  returns 0x00 (0000ms, 0645ms total)
T03B4 001:183 JLINK_WriteReg(R12, 0x00000000)  returns 0x00 (0000ms, 0645ms total)
T03B4 001:183 JLINK_WriteReg(R13 (SP), 0x2000F000)  returns 0x00 (0000ms, 0645ms total)
T03B4 001:183 JLINK_WriteReg(R14, 0x20000001)  returns 0x00 (0000ms, 0645ms total)
T03B4 001:183 JLINK_WriteReg(R15 (PC), 0x20000020)  returns 0x00 (0000ms, 0645ms total)
T03B4 001:183 JLINK_WriteReg(XPSR, 0x01000000)  returns 0x00 (0000ms, 0645ms total)
T03B4 001:183 JLINK_WriteReg(MSP, 0x2000F000)  returns 0x00 (0000ms, 0645ms total)
T03B4 001:183 JLINK_WriteReg(PSP, 0x2000F000)  returns 0x00 (0000ms, 0645ms total)
T03B4 001:183 JLINK_WriteReg(CFBP, 0x00000000)  returns 0x00 (0000ms, 0645ms total)
T03B4 001:183 JLINK_SetBPEx(Addr = 0x20000000, Type = 0xFFFFFFF2)  returns 0x00000012 (0000ms, 0645ms total)
T03B4 001:183 JLINK_Go() (0002ms, 0647ms total)
T03B4 001:185 JLINK_IsHalted() -- CPU_ReadMem(2 bytes @ 0x20000000)  returns TRUE (0002ms, 0649ms total)
T03B4 001:187 JLINK_ReadReg(R15 (PC))  returns 0x20000000 (0001ms, 0648ms total)
